Title: * C:\Users\sanme_000\Documents\Visual Studio 2015\Projects\VideoRental2\VideoRental2\Content\OtherFile\RC2.asc
Date: Thu Jul 06 19:50:37 2017
Plotname: Transient Analysis
Flags: real forward
No. Variables: 6
No. Points:         1042
Offset:   0.0000000000000000e+000
Command: Linear Technology Corporation LTspice IV
Variables:
	0	time	time
	1	V(n001)	voltage
	2	V(n002)	voltage
	3	I(C1)	device_current
	4	I(R1)	device_current
	5	I(V1)	device_current
Values:
0		0.000000000000000e+000
	5.000000000000000e+000
	0.000000000000000e+000
	0.000000000000000e+000
	1.000000000000000e+000
	-1.000000000000000e+000
1		2.441406243836042e-010
	5.000000000000000e+000
	2.441406124626759e-007
	9.999999511718776e-001
	9.999999511718776e-001
	-9.999999511718775e-001
2		4.882812487672084e-010
	5.000000000000000e+000
	4.882812130044240e-007
	9.999999023437576e-001
	9.999999023437575e-001
	-9.999999023437574e-001
3		9.765624975344167e-010
	5.000000000000000e+000
	9.765623902460661e-007
	9.999998046875223e-001
	9.999998046875220e-001
	-9.999998046875219e-001
4		1.953124995068833e-009
	5.000000000000000e+000
	1.953124601678239e-006
	9.999996093750796e-001
	9.999996093750797e-001
	-9.999996093750797e-001
5		3.906249990137667e-009
	5.000000000000000e+000
	3.906248452338275e-006
	9.999992187503093e-001
	9.999992187503095e-001
	-9.999992187503095e-001
6		7.812499980275334e-009
	5.000000000000000e+000
	7.812493864842236e-006
	9.999984375012270e-001
	9.999984375012270e-001
	-9.999984375012271e-001
7		1.562499996055067e-008
	5.000000000000000e+000
	1.562497553459465e-005
	9.999968750048933e-001
	9.999968750048931e-001
	-9.999968750048931e-001
8		3.124999992110134e-008
	5.000000000000000e+000
	3.124990225314896e-005
	9.999937500195495e-001
	9.999937500195494e-001
	-9.999937500195494e-001
9		6.249999984220267e-008
	5.000000000000000e+000
	6.249960920702775e-005
	9.999875000781584e-001
	9.999875000781586e-001
	-9.999875000781586e-001
10		1.249999996844053e-007
	5.000000000000000e+000
	1.249984371864434e-004
	9.999750003125620e-001
	9.999750003125627e-001
	-9.999750003125627e-001
11		2.499999993688107e-007
	5.000000000000000e+000
	2.499937494685273e-004
	9.999500012501059e-001
	9.999500012501064e-001
	-9.999500012501063e-001
12		4.999999987376214e-007
	5.000000000000000e+000
	4.999749996186581e-004
	9.999000050000761e-001
	9.999000050000764e-001
	-9.999000050000763e-001
13		9.999999974752427e-007
	5.000000000000000e+000
	9.999000046062576e-004
	9.998000199990793e-001
	9.998000199990789e-001
	-9.998000199990788e-001
14		1.999999994950485e-006
	5.000000000000000e+000
	1.999600052076589e-003
	9.996000799895839e-001
	9.996000799895847e-001
	-9.996000799895847e-001
15		3.999999989900971e-006
	5.000000000000000e+000
	3.998400446930302e-003
	9.992003199106136e-001
	9.992003199106141e-001
	-9.992003199106140e-001
16		7.999999979801942e-006
	5.000000000000000e+000
	7.993603635210527e-003
	9.984012792729575e-001
	9.984012792729580e-001
	-9.984012792729579e-001
17		1.599999995960388e-005
	5.000000000000000e+000
	1.597442918880167e-002
	9.968051141622394e-001
	9.968051141622397e-001
	-9.968051141622397e-001
18		3.199999991920777e-005
	5.000000000000000e+000
	3.189783352825166e-002
	9.936204332943497e-001
	9.936204332943497e-001
	-9.936204332943497e-001
19		5.641406241920777e-005
	5.000000000000000e+000
	5.609706473366690e-002
	9.887805870532667e-001
	9.887805870532667e-001
	-9.887805870532667e-001
20		8.082812491920777e-005
	5.000000000000000e+000
	8.017842340520286e-002
	9.839643153189588e-001
	9.839643153189596e-001
	-9.839643153189595e-001
21		1.052421874192078e-004
	5.000000000000000e+000
	1.041424836906135e-001
	9.791715032618775e-001
	9.791715032618774e-001
	-9.791715032618773e-001
22		1.296562499192078e-004
	5.000000000000000e+000
	1.279898169410245e-001
	9.744020366117958e-001
	9.744020366117951e-001
	-9.744020366117951e-001
23		1.540703124192078e-004
	5.000000000000000e+000
	1.517209917245558e-001
	9.696558016550902e-001
	9.696558016550889e-001
	-9.696558016550888e-001
24		1.784843749192078e-004
	5.000000000000000e+000
	1.753365738398771e-001
	9.649326852320233e-001
	9.649326852320247e-001
	-9.649326852320246e-001
25		2.028984374192078e-004
	5.000000000000000e+000
	1.988371263296974e-001
	9.602325747340608e-001
	9.602325747340607e-001
	-9.602325747340605e-001
26		2.273124999192078e-004
	5.000000000000000e+000
	2.222232094941899e-001
	9.555553581011615e-001
	9.555553581011621e-001
	-9.555553581011620e-001
27		2.517265624192077e-004
	5.000000000000000e+000
	2.454953809043497e-001
	9.509009238191304e-001
	9.509009238191301e-001
	-9.509009238191301e-001
28		2.761406249192078e-004
	5.000000000000000e+000
	2.686541954152881e-001
	9.462691609169447e-001
	9.462691609169425e-001
	-9.462691609169424e-001
29		3.005546874192078e-004
	5.000000000000000e+000
	2.917002051794612e-001
	9.416599589641095e-001
	9.416599589641077e-001
	-9.416599589641078e-001
30		3.249687499192078e-004
	5.000000000000000e+000
	3.146339596598340e-001
	9.370732080680355e-001
	9.370732080680333e-001
	-9.370732080680332e-001
31		3.493828124192078e-004
	5.000000000000000e+000
	3.374560056429815e-001
	9.325087988714031e-001
	9.325087988714037e-001
	-9.325087988714037e-001
32		3.737968749192079e-004
	5.000000000000000e+000
	3.601668872521243e-001
	9.279666225495760e-001
	9.279666225495751e-001
	-9.279666225495752e-001
33		3.982109374192079e-004
	5.000000000000000e+000
	3.827671459601023e-001
	9.234465708079789e-001
	9.234465708079797e-001
	-9.234465708079795e-001
34		4.226249999192079e-004
	5.000000000000000e+000
	4.052573206022840e-001
	9.189485358795437e-001
	9.189485358795433e-001
	-9.189485358795432e-001
35		4.470390624192079e-004
	5.000000000000000e+000
	4.276379473894136e-001
	9.144724105221158e-001
	9.144724105221173e-001
	-9.144724105221173e-001
36		4.714531249192079e-004
	5.000000000000000e+000
	4.499095599203955e-001
	9.100180880159172e-001
	9.100180880159210e-001
	-9.100180880159209e-001
37		4.958671874192080e-004
	5.000000000000000e+000
	4.720726891950161e-001
	9.055854621609925e-001
	9.055854621609968e-001
	-9.055854621609968e-001
38		5.202812499192080e-004
	5.000000000000000e+000
	4.941278636266040e-001
	9.011744272746824e-001
	9.011744272746793e-001
	-9.011744272746792e-001
39		5.446953124192080e-004
	5.000000000000000e+000
	5.160756090546284e-001
	8.967848781890808e-001
	8.967848781890745e-001
	-8.967848781890744e-001
40		5.691093749192080e-004
	5.000000000000000e+000
	5.379164487572362e-001
	8.924167102485541e-001
	8.924167102485529e-001
	-8.924167102485527e-001
41		5.935234374192081e-004
	5.000000000000000e+000
	5.596509034637278e-001
	8.880698193072476e-001
	8.880698193072544e-001
	-8.880698193072545e-001
42		6.179374999192081e-004
	5.000000000000000e+000
	5.812794913669732e-001
	8.837441017266059e-001
	8.837441017266055e-001
	-8.837441017266053e-001
43		6.423515624192081e-004
	5.000000000000000e+000
	6.028027281357654e-001
	8.794394543728430e-001
	8.794394543728470e-001
	-8.794394543728469e-001
44		6.667656249192081e-004
	5.000000000000000e+000
	6.242211269271157e-001
	8.751557746145764e-001
	8.751557746145769e-001
	-8.751557746145768e-001
45		6.911796874192081e-004
	5.000000000000000e+000
	6.455351983984888e-001
	8.708929603203046e-001
	8.708929603203024e-001
	-8.708929603203023e-001
46		7.155937499192082e-004
	5.000000000000000e+000
	6.667454507199770e-001
	8.666509098560056e-001
	8.666509098560046e-001
	-8.666509098560046e-001
47		7.400078124192082e-004
	5.000000000000000e+000
	6.878523895864164e-001
	8.624295220827207e-001
	8.624295220827168e-001
	-8.624295220827167e-001
48		7.644218749192082e-004
	5.000000000000000e+000
	7.088565182294440e-001
	8.582286963541108e-001
	8.582286963541113e-001
	-8.582286963541113e-001
49		7.888359374192082e-004
	5.000000000000000e+000
	7.297583374294954e-001
	8.540483325140968e-001
	8.540483325141010e-001
	-8.540483325141010e-001
50		8.132499999192082e-004
	5.000000000000000e+000
	7.505583455277445e-001
	8.498883308944514e-001
	8.498883308944510e-001
	-8.498883308944512e-001
51		8.376640624192083e-004
	5.000000000000000e+000
	7.712570384379844e-001
	8.457485923124040e-001
	8.457485923124031e-001
	-8.457485923124031e-001
52		8.620781249192083e-004
	5.000000000000000e+000
	7.918549096584523e-001
	8.416290180683177e-001
	8.416290180683096e-001
	-8.416290180683095e-001
53		8.864921874192083e-004
	5.000000000000000e+000
	8.123524502835939e-001
	8.375295099432805e-001
	8.375295099432812e-001
	-8.375295099432812e-001
54		9.109062499192083e-004
	5.000000000000000e+000
	8.327501490157733e-001
	8.334499701968525e-001
	8.334499701968454e-001
	-8.334499701968453e-001
55		9.353203124192084e-004
	5.000000000000000e+000
	8.530484921769240e-001
	8.293903015646151e-001
	8.293903015646151e-001
	-8.293903015646151e-001
56		9.597343749192084e-004
	5.000000000000000e+000
	8.732479637201441e-001
	8.253504072559821e-001
	8.253504072559713e-001
	-8.253504072559712e-001
57		9.841484374192083e-004
	5.000000000000000e+000
	8.933490452412344e-001
	8.213301909517554e-001
	8.213301909517532e-001
	-8.213301909517531e-001
58		1.008562499919208e-003
	5.000000000000000e+000
	9.133522159901810e-001
	8.173295568019654e-001
	8.173295568019638e-001
	-8.173295568019638e-001
59		1.032976562419208e-003
	5.000000000000000e+000
	9.332579528825815e-001
	8.133484094234831e-001
	8.133484094234839e-001
	-8.133484094234837e-001
60		1.057390624919208e-003
	5.000000000000000e+000
	9.530667305110151e-001
	8.093866538978034e-001
	8.093866538977971e-001
	-8.093866538977970e-001
61		1.081804687419208e-003
	5.000000000000000e+000
	9.727790211563584e-001
	8.054441957687288e-001
	8.054441957687284e-001
	-8.054441957687283e-001
62		1.106218749919208e-003
	5.000000000000000e+000
	9.923952947990454e-001
	8.015209410401951e-001
	8.015209410401909e-001
	-8.015209410401909e-001
63		1.130632812419208e-003
	5.000000000000000e+000
	1.011916019130273e+000
	7.976167961739407e-001
	7.976167961739455e-001
	-7.976167961739454e-001
64		1.155046874919208e-003
	5.000000000000000e+000
	1.031341659563150e+000
	7.937316680873749e-001
	7.937316680873701e-001
	-7.937316680873700e-001
65		1.179460937419208e-003
	5.000000000000000e+000
	1.050672679243798e+000
	7.898654641512479e-001
	7.898654641512405e-001
	-7.898654641512405e-001
66		1.203874999919208e-003
	5.000000000000000e+000
	1.069909539062386e+000
	7.860180921875184e-001
	7.860180921875228e-001
	-7.860180921875227e-001
67		1.228289062419207e-003
	5.000000000000000e+000
	1.089052697664128e+000
	7.821894604671797e-001
	7.821894604671744e-001
	-7.821894604671744e-001
68		1.252703124919207e-003
	5.000000000000000e+000
	1.108102611460211e+000
	7.783794777079578e-001
	7.783794777079578e-001
	-7.783794777079578e-001
69		1.277117187419207e-003
	5.000000000000000e+000
	1.127059734638681e+000
	7.745880530722644e-001
	7.745880530722640e-001
	-7.745880530722639e-001
70		1.301531249919207e-003
	5.000000000000000e+000
	1.145924519175267e+000
	7.708150961649523e-001
	7.708150961649466e-001
	-7.708150961649465e-001
71		1.325945312419207e-003
	5.000000000000000e+000
	1.164697414844165e+000
	7.670605170311688e-001
	7.670605170311670e-001
	-7.670605170311670e-001
72		1.350359374919207e-003
	5.000000000000000e+000
	1.183378869228753e+000
	7.633242261542534e-001
	7.633242261542494e-001
	-7.633242261542494e-001
73		1.374773437419207e-003
	5.000000000000000e+000
	1.201969327732266e+000
	7.596061344535485e-001
	7.596061344535467e-001
	-7.596061344535467e-001
74		1.399187499919207e-003
	5.000000000000000e+000
	1.220469233588417e+000
	7.559061532823108e-001
	7.559061532823167e-001
	-7.559061532823166e-001
75		1.423601562419207e-003
	5.000000000000000e+000
	1.238879027871961e+000
	7.522241944256081e-001
	7.522241944256080e-001
	-7.522241944256078e-001
76		1.448015624919207e-003
	5.000000000000000e+000
	1.257199149509214e+000
	7.485601700981590e-001
	7.485601700981572e-001
	-7.485601700981572e-001
77		1.472429687419207e-003
	5.000000000000000e+000
	1.275430035288516e+000
	7.449139929422870e-001
	7.449139929422968e-001
	-7.449139929422968e-001
78		1.496843749919207e-003
	5.000000000000000e+000
	1.293572119870647e+000
	7.412855760258736e-001
	7.412855760258706e-001
	-7.412855760258705e-001
79		1.521257812419206e-003
	5.000000000000000e+000
	1.311625835799188e+000
	7.376748328401703e-001
	7.376748328401626e-001
	-7.376748328401624e-001
80		1.545671874919206e-003
	5.000000000000000e+000
	1.329591613510833e+000
	7.340816772978371e-001
	7.340816772978335e-001
	-7.340816772978334e-001
81		1.570085937419206e-003
	5.000000000000000e+000
	1.347469881345656e+000
	7.305060237308680e-001
	7.305060237308688e-001
	-7.305060237308687e-001
82		1.594499999919206e-003
	5.000000000000000e+000
	1.365261065557319e+000
	7.269477868885446e-001
	7.269477868885362e-001
	-7.269477868885362e-001
83		1.618914062419206e-003
	5.000000000000000e+000
	1.382965590323236e+000
	7.234068819353610e-001
	7.234068819353530e-001
	-7.234068819353529e-001
84		1.643328124919206e-003
	5.000000000000000e+000
	1.400583877754686e+000
	7.198832244490632e-001
	7.198832244490628e-001
	-7.198832244490627e-001
85		1.667742187419206e-003
	5.000000000000000e+000
	1.418116347906880e+000
	7.163767304186308e-001
	7.163767304186242e-001
	-7.163767304186240e-001
86		1.692156249919206e-003
	5.000000000000000e+000
	1.435563418788970e+000
	7.128873162422025e-001
	7.128873162422060e-001
	-7.128873162422059e-001
87		1.716570312419206e-003
	5.000000000000000e+000
	1.452925506374021e+000
	7.094148987251856e-001
	7.094148987251958e-001
	-7.094148987251957e-001
88		1.740984374919206e-003
	5.000000000000000e+000
	1.470203024608926e+000
	7.059593950782102e-001
	7.059593950782148e-001
	-7.059593950782148e-001
89		1.765398437419206e-003
	5.000000000000000e+000
	1.487396385424275e+000
	7.025207229151533e-001
	7.025207229151450e-001
	-7.025207229151449e-001
90		1.789812499919205e-003
	5.000000000000000e+000
	1.504505998744176e+000
	6.990988002511784e-001
	6.990988002511648e-001
	-6.990988002511647e-001
91		1.814226562419205e-003
	5.000000000000000e+000
	1.521532272496031e+000
	6.956935455007880e-001
	6.956935455007938e-001
	-6.956935455007938e-001
92		1.838640624919205e-003
	5.000000000000000e+000
	1.538475612620259e+000
	6.923048774759479e-001
	6.923048774759482e-001
	-6.923048774759482e-001
93		1.863054687419205e-003
	5.000000000000000e+000
	1.555336423079976e+000
	6.889327153839986e-001
	6.889327153840049e-001
	-6.889327153840048e-001
94		1.887468749919205e-003
	5.000000000000000e+000
	1.572115105870623e+000
	6.855769788258783e-001
	6.855769788258753e-001
	-6.855769788258752e-001
95		1.911882812419205e-003
	5.000000000000000e+000
	1.588812061029558e+000
	6.822375877941056e-001
	6.822375877940884e-001
	-6.822375877940883e-001
96		1.936296874919205e-003
	5.000000000000000e+000
	1.605427686645585e+000
	6.789144626708605e-001
	6.789144626708830e-001
	-6.789144626708830e-001
97		1.960710937419205e-003
	5.000000000000000e+000
	1.621962378868451e+000
	6.756075242263080e-001
	6.756075242263098e-001
	-6.756075242263098e-001
98		1.985124999919205e-003
	5.000000000000000e+000
	1.638416531918288e+000
	6.723166936163523e-001
	6.723166936163425e-001
	-6.723166936163424e-001
99		2.009539062419205e-003
	5.000000000000000e+000
	1.654790538095013e+000
	6.690418923809887e-001
	6.690418923809974e-001
	-6.690418923809973e-001
100		2.033953124919205e-003
	5.000000000000000e+000
	1.671084787787682e+000
	6.657830424424560e-001
	6.657830424424636e-001
	-6.657830424424636e-001
101		2.058367187419205e-003
	5.000000000000000e+000
	1.687299669483797e+000
	6.625400661032472e-001
	6.625400661032407e-001
	-6.625400661032406e-001
102		2.082781249919204e-003
	5.000000000000000e+000
	1.703435569778566e+000
	6.593128860442903e-001
	6.593128860442867e-001
	-6.593128860442867e-001
103		2.107195312419204e-003
	5.000000000000000e+000
	1.719492873384126e+000
	6.561014253231576e-001
	6.561014253231748e-001
	-6.561014253231747e-001
104		2.131609374919204e-003
	5.000000000000000e+000
	1.735471963138709e+000
	6.529056073722757e-001
	6.529056073722581e-001
	-6.529056073722581e-001
105		2.156023437419204e-003
	5.000000000000000e+000
	1.751373220015774e+000
	6.497253559968499e-001
	6.497253559968452e-001
	-6.497253559968452e-001
106		2.180437499919204e-003
	5.000000000000000e+000
	1.767197023133087e+000
	6.465605953733871e-001
	6.465605953733827e-001
	-6.465605953733826e-001
107		2.204851562419204e-003
	5.000000000000000e+000
	1.782943749761761e+000
	6.434112500476488e-001
	6.434112500476478e-001
	-6.434112500476477e-001
108		2.229265624919204e-003
	5.000000000000000e+000
	1.798613775335255e+000
	6.402772449329461e-001
	6.402772449329490e-001
	-6.402772449329490e-001
109		2.253679687419204e-003
	5.000000000000000e+000
	1.814207473458318e+000
	6.371585053083493e-001
	6.371585053083365e-001
	-6.371585053083366e-001
110		2.278093749919204e-003
	5.000000000000000e+000
	1.829725215915901e+000
	6.340549568168115e-001
	6.340549568168199e-001
	-6.340549568168199e-001
111		2.302507812419204e-003
	5.000000000000000e+000
	1.845167372682019e+000
	6.309665254636059e-001
	6.309665254635963e-001
	-6.309665254635962e-001
112		2.326921874919204e-003
	5.000000000000000e+000
	1.860534311928575e+000
	6.278931376142793e-001
	6.278931376142851e-001
	-6.278931376142849e-001
113		2.351335937419203e-003
	5.000000000000000e+000
	1.875826400034135e+000
	6.248347199931743e-001
	6.248347199931731e-001
	-6.248347199931730e-001
114		2.375749999919203e-003
	5.000000000000000e+000
	1.891044001592663e+000
	6.217911996814678e-001
	6.217911996814673e-001
	-6.217911996814673e-001
115		2.400164062419203e-003
	5.000000000000000e+000
	1.906187479422217e+000
	6.187625041155513e-001
	6.187625041155566e-001
	-6.187625041155566e-001
116		2.424578124919203e-003
	5.000000000000000e+000
	1.921257194573595e+000
	6.157485610852689e-001
	6.157485610852810e-001
	-6.157485610852810e-001
117		2.448992187419203e-003
	5.000000000000000e+000
	1.936253506338946e+000
	6.127492987322114e-001
	6.127492987322110e-001
	-6.127492987322110e-001
118		2.473406249919203e-003
	5.000000000000000e+000
	1.951176772260335e+000
	6.097646455479264e-001
	6.097646455479331e-001
	-6.097646455479331e-001
119		2.497820312419203e-003
	5.000000000000000e+000
	1.966027348138268e+000
	6.067945303723548e-001
	6.067945303723464e-001
	-6.067945303723465e-001
120		2.522234374919203e-003
	5.000000000000000e+000
	1.980805588040176e+000
	6.038388823919831e-001
	6.038388823919649e-001
	-6.038388823919648e-001
121		2.546648437419203e-003
	5.000000000000000e+000
	1.995511844308855e+000
	6.008976311382241e-001
	6.008976311382290e-001
	-6.008976311382289e-001
122		2.571062499919203e-003
	5.000000000000000e+000
	2.010146467570868e+000
	5.979707064858246e-001
	5.979707064858265e-001
	-5.979707064858264e-001
123		2.595476562419203e-003
	5.000000000000000e+000
	2.024709806744901e+000
	5.950580386509898e-001
	5.950580386510198e-001
	-5.950580386510198e-001
124		2.619890624919203e-003
	5.000000000000000e+000
	2.039202209050090e+000
	5.921595581899908e-001
	5.921595581899821e-001
	-5.921595581899821e-001
125		2.644304687419202e-003
	5.000000000000000e+000
	2.053624020014288e+000
	5.892751959971463e-001
	5.892751959971424e-001
	-5.892751959971423e-001
126		2.668718749919202e-003
	5.000000000000000e+000
	2.067975583482313e+000
	5.864048833035440e-001
	5.864048833035374e-001
	-5.864048833035372e-001
127		2.693132812419202e-003
	5.000000000000000e+000
	2.082257241624143e+000
	5.835485516751646e-001
	5.835485516751714e-001
	-5.835485516751715e-001
128		2.717546874919202e-003
	5.000000000000000e+000
	2.096469334943071e+000
	5.807061330113754e-001
	5.807061330113859e-001
	-5.807061330113859e-001
129		2.741960937419202e-003
	5.000000000000000e+000
	2.110612202283826e+000
	5.778775595432535e-001
	5.778775595432347e-001
	-5.778775595432347e-001
130		2.766374999919202e-003
	5.000000000000000e+000
	2.124686180840651e+000
	5.750627638318520e-001
	5.750627638318697e-001
	-5.750627638318697e-001
131		2.790789062419202e-003
	5.000000000000000e+000
	2.138691606165344e+000
	5.722616787669210e-001
	5.722616787669311e-001
